
T20C4 000:282 SEGGER J-Link V5.12f Log File (0005ms, 0281ms total)
T20C4 000:282 DLL Compiled: May 17 2016 16:03:35 (0005ms, 0281ms total)
T20C4 000:282 Logging started @ 2016-11-28 12:00 (0005ms, 0281ms total)
T20C4 000:287 JLINK_SetWarnOutHandler(...) (0000ms, 0281ms total)
T20C4 000:287 JLINK_OpenEx(...)
Firmware: J-Link Lite-Cortex-M V8 compiled Aug 20 2015 17:57:19
Hardware: V8.00
S/N: 518001044
Feature(s): GDB  returns O.K. (0271ms, 0552ms total)
T20C4 000:558 JLINK_SetErrorOutHandler(...) (0000ms, 0552ms total)
T20C4 000:558 JLINK_ExecCommand("ProjectFile = "E:\Projects\Sensocheck_BLE\Pub\ADC over BLE Rev01\examples\ble_peripheral\ble_app_uart\pca10028\s130\arm5_no_packs\JLinkSettings.ini"", ...)  returns 0x00 (0000ms, 0552ms total)
T20C4 000:562 JLINK_ExecCommand("Device = nRF51422_xxAC", ...)Device "NRF51422_XXAC" selected.  returns 0x00 (0006ms, 0558ms total)
T20C4 000:568 JLINK_ExecCommand("DisableConnectionTimeout", ...)  returns 0x01 (0000ms, 0558ms total)
T20C4 000:568 JLINK_GetHardwareVersion()  returns 0x13880 (0000ms, 0558ms total)
T20C4 000:568 JLINK_GetDLLVersion()  returns 51206 (0000ms, 0558ms total)
T20C4 000:568 JLINK_GetFirmwareString(...) (0000ms, 0558ms total)
T20C4 000:573 JLINK_GetDLLVersion()  returns 51206 (0000ms, 0558ms total)
T20C4 000:573 JLINK_GetCompileDateTime() (0000ms, 0558ms total)
T20C4 000:575 JLINK_GetFirmwareString(...) (0000ms, 0558ms total)
T20C4 000:576 JLINK_GetHardwareVersion()  returns 0x13880 (0001ms, 0559ms total)
T20C4 000:585 JLINK_TIF_Select(JLINKARM_TIF_SWD)  returns 0x00 (0005ms, 0564ms total)
T20C4 000:590 JLINK_SetSpeed(5000) (0001ms, 0565ms total)
T20C4 000:591 JLINK_GetId() >0x108 TIF>Found SWD-DP with ID 0x0BB11477 >0x0D TIF> >0x28 TIF> >0x0D TIF> >0x28 TIF> >0x0D TIF> >0x28 TIF> >0x0D TIF> >0x28 TIF> >0x35 TIF> >0x0D TIF> >0x28 TIF> >0x0D TIF> >0x28 TIF> >0x35 TIF> >0x35 TIF> >0x35 TIF> >0x0D TIF> >0x28 TIF> >0x0D TIF> >0x28 TIF> >0x0D TIF> >0x28 TIF> >0x35 TIF> >0x35 TIF> >0x0D TIF> >0x28 TIF> >0x35 TIF> >0x35 TIF>Found Cortex-M0 r0p0, Little endian. -- CPU_ReadMem(4 bytes @ 0xE000EDF0) -- CPU_ReadMem(4 bytes @ 0xE0002000)
FPUnit: 4 code (BP) slots and 0 literal slots -- CPU_ReadMem(4 bytes @ 0xE000EDFC) -- CPU_ReadMem(4 bytes @ 0xE0001000) -- CPU_WriteMem(4 bytes @ 0xE0001000)CoreSight components:ROMTbl 0 @ F0000000 -- CPU_ReadMem(16 bytes @ 0xF0000000) -- CPU_ReadMem(16 bytes @ 0xE00FFFF0) -- CPU_ReadMem(16 bytes @ 0xE00FFFE0)ROMTbl 0 [0]: F00FF000, CID: B105100D, PID: 000BB471 ROM TableROMTbl 1 @ E00FF000 -- CPU_ReadMem(16 bytes @ 0xE00FF000) -- CPU_ReadMem(16 bytes @ 0xE000EFF0) -- CPU_ReadMem(16 bytes @ 0xE000EFE0)
ROMTbl 1 [0]: FFF0F000, CID: B105E00D, PID: 000BB008 SCS -- CPU_ReadMem(16 bytes @ 0xE0001FF0) -- CPU_ReadMem(16 bytes @ 0xE0001FE0)ROMTbl 1 [1]: FFF02000, CID: B105E00D, PID: 000BB00A DWT -- CPU_ReadMem(16 bytes @ 0xE0002FF0) -- CPU_ReadMem(16 bytes @ 0xE0002FE0)ROMTbl 1 [2]: FFF03000, CID: B105E00D, PID: 000BB00B FPB -- CPU_ReadMem(16 bytes @ 0xF0002FF0) -- CPU_ReadMem(16 bytes @ 0xF0002FE0)ROMTbl 0 [1]: 00002000, CID: B105900D, PID: 000BB9A3 ??? >0x35 TIF>  returns 0x0BB11477 (0074ms, 0639ms total)
T20C4 000:665 JLINK_GetDLLVersion()  returns 51206 (0000ms, 0639ms total)
T20C4 000:665 JLINK_CORE_GetFound()  returns 0x60000FF (0000ms, 0639ms total)
T20C4 000:665 JLINK_GetDebugInfo(0x100) -- Value=0xF0000000  returns 0x00 (0000ms, 0639ms total)
T20C4 000:667 JLINK_ReadMem (0xF0000000, 0x0020 Bytes, ...) -- CPU is running -- CPU_ReadMem(32 bytes @ 0xF0000000) - Data: 03 F0 0F F0 03 20 00 00 00 00 00 00 00 00 00 00 ...  returns 0x00 (0001ms, 0640ms total)
T20C4 000:668 JLINK_ReadMem (0xE00FFFF0, 0x0010 Bytes, ...) -- CPU is running -- CPU_ReadMem(16 bytes @ 0xE00FFFF0) - Data: 0D 00 00 00 10 00 00 00 05 00 00 00 B1 00 00 00  returns 0x00 (0001ms, 0641ms total)
T20C4 000:669 JLINK_ReadMem (0xE00FFFD0, 0x0020 Bytes, ...) -- CPU is running -- CPU_ReadMem(32 bytes @ 0xE00FFFD0) - Data: 04 00 00 00 00 00 00 00 00 00 00 00 00 00 00 00 ...  returns 0x00 (0001ms, 0642ms total)
T20C4 000:670 JLINK_ReadMem (0xE00FF000, 0x0020 Bytes, ...) -- CPU is running -- CPU_ReadMem(32 bytes @ 0xE00FF000) - Data: 03 F0 F0 FF 03 20 F0 FF 03 30 F0 FF 00 00 00 00 ...  returns 0x00 (0001ms, 0643ms total)
T20C4 000:671 JLINK_ReadMem (0xE000EFF0, 0x0010 Bytes, ...) -- CPU is running -- CPU_ReadMem(16 bytes @ 0xE000EFF0) - Data: 0D 00 00 00 E0 00 00 00 05 00 00 00 B1 00 00 00  returns 0x00 (0001ms, 0644ms total)
T20C4 000:672 JLINK_ReadMem (0xE000EFD0, 0x0020 Bytes, ...) -- CPU is running -- CPU_ReadMem(32 bytes @ 0xE000EFD0) - Data: 04 00 00 00 00 00 00 00 00 00 00 00 00 00 00 00 ...  returns 0x00 (0001ms, 0645ms total)
T20C4 000:673 JLINK_ReadMem (0xE0001FF0, 0x0010 Bytes, ...) -- CPU is running -- CPU_ReadMem(16 bytes @ 0xE0001FF0) - Data: 0D 00 00 00 E0 00 00 00 05 00 00 00 B1 00 00 00  returns 0x00 (0001ms, 0646ms total)
T20C4 000:674 JLINK_ReadMem (0xE0001FD0, 0x0020 Bytes, ...) -- CPU is running -- CPU_ReadMem(32 bytes @ 0xE0001FD0) - Data: 04 00 00 00 00 00 00 00 00 00 00 00 00 00 00 00 ...  returns 0x00 (0001ms, 0647ms total)
T20C4 000:675 JLINK_ReadMem (0xE0002FF0, 0x0010 Bytes, ...) -- CPU is running -- CPU_ReadMem(16 bytes @ 0xE0002FF0) - Data: 0D 00 00 00 E0 00 00 00 05 00 00 00 B1 00 00 00  returns 0x00 (0001ms, 0648ms total)
T20C4 000:676 JLINK_ReadMem (0xE0002FD0, 0x0020 Bytes, ...) -- CPU is running -- CPU_ReadMem(32 bytes @ 0xE0002FD0) - Data: 04 00 00 00 00 00 00 00 00 00 00 00 00 00 00 00 ...  returns 0x00 (0001ms, 0649ms total)
T20C4 000:677 JLINK_ReadMem (0xF0002FF0, 0x0010 Bytes, ...) -- CPU is running -- CPU_ReadMem(16 bytes @ 0xF0002FF0) - Data: 0D 00 00 00 90 00 00 00 05 00 00 00 B1 00 00 00  returns 0x00 (0001ms, 0650ms total)
T20C4 000:678 JLINK_ReadMem (0xF0002FD0, 0x0020 Bytes, ...) -- CPU is running -- CPU_ReadMem(32 bytes @ 0xF0002FD0) - Data: 04 00 00 00 00 00 00 00 00 00 00 00 00 00 00 00 ...  returns 0x00 (0001ms, 0651ms total)
T20C4 000:679 JLINK_ReadMemU32(0xE000ED00, 0x0001 Items, ...) -- CPU is running -- CPU_ReadMem(4 bytes @ 0xE000ED00) - Data: 00 C2 0C 41  returns 0x01 (0001ms, 0652ms total)
T20C4 000:680 JLINK_SetResetType(JLINKARM_RESET_TYPE_NORMAL)  returns JLINKARM_RESET_TYPE_NORMAL (0000ms, 0652ms total)
T20C4 000:680 JLINK_Reset() -- CPU is running -- CPU_WriteMem(4 bytes @ 0xE000EDF0) -- CPU is running -- CPU_WriteMem(4 bytes @ 0xE000EDFC) >0x35 TIF> -- CPU is running -- CPU_WriteMem(4 bytes @ 0xE000ED0C) -- CPU is running -- CPU_ReadMem(4 bytes @ 0xE000EDF0) -- CPU is running -- CPU_ReadMem(4 bytes @ 0xE000EDF0) -- CPU is running -- CPU_WriteMem(4 bytes @ 0xE000EDF0) -- CPU is running -- CPU_WriteMem(4 bytes @ 0xE000EDFC) -- CPU is running -- CPU_ReadMem(4 bytes @ 0xE000EDF0)
 -- CPU_WriteMem(4 bytes @ 0xE0002000) -- CPU_ReadMem(4 bytes @ 0xE000EDFC) -- CPU_ReadMem(4 bytes @ 0xE0001000) -- CPU_WriteMem(4 bytes @ 0xE0001000) (0026ms, 0678ms total)
T20C4 000:706 JLINK_Halt()  returns 0x00 (0000ms, 0678ms total)
T20C4 000:706 JLINK_IsHalted()  returns TRUE (0000ms, 0678ms total)
T20C4 000:706 JLINK_ReadMemU32(0xE000EDF0, 0x0001 Items, ...) -- CPU_ReadMem(4 bytes @ 0xE000EDF0) - Data: 03 00 03 00  returns 0x01 (0001ms, 0679ms total)
T20C4 000:707 JLINK_WriteU32(0xE000EDF0, 0xA05F0003) -- CPU_WriteMem(4 bytes @ 0xE000EDF0)  returns 0x00 (0001ms, 0680ms total)
T20C4 000:708 JLINK_WriteU32(0xE000EDFC, 0x01000000) -- CPU_WriteMem(4 bytes @ 0xE000EDFC)  returns 0x00 (0001ms, 0681ms total)
T20C4 000:717 JLINK_GetHWStatus(...)  returns 0x00 (0001ms, 0682ms total)
T20C4 000:724 JLINK_GetNumBPUnits(Type = 0xFFFFFF00)  returns 0x04 (0000ms, 0682ms total)
T20C4 000:724 JLINK_GetNumBPUnits(Type = 0xF0)  returns 0x2000 (0000ms, 0682ms total)
T20C4 000:724 JLINK_GetNumWPUnits()  returns 0x02 (0000ms, 0682ms total)
T20C4 000:730 JLINK_GetSpeed()  returns 0x7D0 (0000ms, 0682ms total)
T20C4 000:733 JLINK_ReadMemU32(0xE000E004, 0x0001 Items, ...) -- CPU_ReadMem(4 bytes @ 0xE000E004) - Data: 00 00 00 00  returns 0x01 (0001ms, 0683ms total)
T20C4 000:734 JLINK_Halt()  returns 0x00 (0000ms, 0683ms total)
T20C4 000:734 JLINK_IsHalted()  returns TRUE (0000ms, 0683ms total)
T20C4 000:736 JLINK_WriteMem(0x20000000, 0x0478 Bytes, ...) - Data: 00 BE 0A E0 0D 78 2D 06 68 40 08 24 40 00 00 D3 ... -- CPU_WriteMem(1144 bytes @ 0x20000000)  returns 0x478 (0013ms, 0696ms total)
T20C4 000:749 JLINK_WriteReg(R0, 0x00000000)  returns 0x00 (0000ms, 0696ms total)
T20C4 000:749 JLINK_WriteReg(R1, 0x00F42400)  returns 0x00 (0000ms, 0696ms total)
T20C4 000:749 JLINK_WriteReg(R2, 0x00000001)  returns 0x00 (0000ms, 0696ms total)
T20C4 000:749 JLINK_WriteReg(R3, 0x00000000)  returns 0x00 (0000ms, 0696ms total)
T20C4 000:749 JLINK_WriteReg(R4, 0x00000000)  returns 0x00 (0000ms, 0696ms total)
T20C4 000:749 JLINK_WriteReg(R5, 0x00000000)  returns 0x00 (0000ms, 0696ms total)
T20C4 000:749 JLINK_WriteReg(R6, 0x00000000)  returns 0x00 (0000ms, 0696ms total)
T20C4 000:749 JLINK_WriteReg(R7, 0x00000000)  returns 0x00 (0000ms, 0696ms total)
T20C4 000:749 JLINK_WriteReg(R8, 0x00000000)  returns 0x00 (0000ms, 0696ms total)
T20C4 000:749 JLINK_WriteReg(R9, 0x20000474)  returns 0x00 (0000ms, 0696ms total)
T20C4 000:749 JLINK_WriteReg(R10, 0x00000000)  returns 0x00 (0000ms, 0696ms total)
T20C4 000:749 JLINK_WriteReg(R11, 0x00000000)  returns 0x00 (0000ms, 0696ms total)
T20C4 000:749 JLINK_WriteReg(R12, 0x00000000)  returns 0x00 (0000ms, 0696ms total)
T20C4 000:749 JLINK_WriteReg(R13 (SP), 0x20002000)  returns 0x00 (0000ms, 0696ms total)
T20C4 000:749 JLINK_WriteReg(R14, 0x20000001)  returns 0x00 (0000ms, 0696ms total)
T20C4 000:749 JLINK_WriteReg(R15 (PC), 0x20000028)  returns 0x00 (0000ms, 0696ms total)
T20C4 000:749 JLINK_WriteReg(XPSR, 0x01000000)  returns 0x00 (0000ms, 0696ms total)
T20C4 000:749 JLINK_WriteReg(MSP, 0x20002000)  returns 0x00 (0000ms, 0696ms total)
T20C4 000:749 JLINK_WriteReg(PSP, 0x20002000)  returns 0x00 (0000ms, 0696ms total)
T20C4 000:749 JLINK_WriteReg(CFBP, 0x00000000)  returns 0x00 (0000ms, 0696ms total)
T20C4 000:749 JLINK_SetBPEx(Addr = 0x20000000, Type = 0xFFFFFFF2) -- CPU_ReadMem(2 bytes @ 0x20000000)  returns 0x00000001 (0001ms, 0697ms total)
T20C4 000:750 JLINK_Go() -- CPU_WriteMem(2 bytes @ 0x20000000) -- CPU_ReadMem(4 bytes @ 0xE0001000) -- CPU_WriteMem(4 bytes @ 0xE0001000) -- CPU_WriteMem(4 bytes @ 0xE0002008) -- CPU_WriteMem(4 bytes @ 0xE000200C) -- CPU_WriteMem(4 bytes @ 0xE0002010) -- CPU_WriteMem(4 bytes @ 0xE0002014) -- CPU_WriteMem(4 bytes @ 0xE0001004) (0013ms, 0710ms total)
T20C4 000:763 JLINK_IsHalted() -- CPU_ReadMem(2 bytes @ 0x20000000)  returns TRUE (0006ms, 0716ms total)
T20C4 000:769 JLINK_ReadReg(R15 (PC))  returns 0x20000000 (0000ms, 0710ms total)
T20C4 000:769 JLINK_ClrBPEx(BPHandle = 0x00000001)  returns 0x00 (0000ms, 0710ms total)
T20C4 000:769 JLINK_ReadReg(R0)  returns 0x00000000 (0000ms, 0710ms total)
T20C4 000:769 JLINK_WriteReg(R0, 0x0001B000)  returns 0x00 (0000ms, 0710ms total)
T20C4 000:769 JLINK_WriteReg(R1, 0x00000400)  returns 0x00 (0000ms, 0710ms total)
T20C4 000:769 JLINK_WriteReg(R2, 0x000000FF)  returns 0x00 (0000ms, 0710ms total)
T20C4 000:769 JLINK_WriteReg(R3, 0x00000000)  returns 0x00 (0000ms, 0710ms total)
T20C4 000:769 JLINK_WriteReg(R4, 0x00000000)  returns 0x00 (0000ms, 0710ms total)
T20C4 000:769 JLINK_WriteReg(R5, 0x00000000)  returns 0x00 (0000ms, 0710ms total)
T20C4 000:769 JLINK_WriteReg(R6, 0x00000000)  returns 0x00 (0000ms, 0710ms total)
T20C4 000:769 JLINK_WriteReg(R7, 0x00000000)  returns 0x00 (0001ms, 0711ms total)
T20C4 000:770 JLINK_WriteReg(R8, 0x00000000)  returns 0x00 (0000ms, 0711ms total)
T20C4 000:770 JLINK_WriteReg(R9, 0x20000474)  returns 0x00 (0000ms, 0711ms total)
T20C4 000:770 JLINK_WriteReg(R10, 0x00000000)  returns 0x00 (0000ms, 0711ms total)
T20C4 000:770 JLINK_WriteReg(R11, 0x00000000)  returns 0x00 (0000ms, 0711ms total)
T20C4 000:770 JLINK_WriteReg(R12, 0x00000000)  returns 0x00 (0000ms, 0711ms total)
T20C4 000:770 JLINK_WriteReg(R13 (SP), 0x20002000)  returns 0x00 (0000ms, 0711ms total)
T20C4 000:770 JLINK_WriteReg(R14, 0x20000001)  returns 0x00 (0000ms, 0711ms total)
T20C4 000:770 JLINK_WriteReg(R15 (PC), 0x20000188)  returns 0x00 (0000ms, 0711ms total)
T20C4 000:770 JLINK_WriteReg(XPSR, 0x01000000)  returns 0x00 (0000ms, 0711ms total)
T20C4 000:770 JLINK_WriteReg(MSP, 0x20002000)  returns 0x00 (0000ms, 0711ms total)
T20C4 000:770 JLINK_WriteReg(PSP, 0x20002000)  returns 0x00 (0000ms, 0711ms total)
T20C4 000:770 JLINK_WriteReg(CFBP, 0x00000000)  returns 0x00 (0000ms, 0711ms total)
T20C4 000:770 JLINK_SetBPEx(Addr = 0x20000000, Type = 0xFFFFFFF2)  returns 0x00000002 (0000ms, 0711ms total)
T20C4 000:770 JLINK_Go() -- CPU_ReadMem(4 bytes @ 0xE0001000) -- CPU_WriteMem(4 bytes @ 0xE0001000) (0004ms, 0715ms total)
T20C4 000:774 JLINK_IsHalted() -- CPU_ReadMem(2 bytes @ 0x20000000)  returns TRUE (0006ms, 0721ms total)
T20C4 000:780 JLINK_ReadReg(R15 (PC))  returns 0x20000000 (0001ms, 0716ms total)
T20C4 000:781 JLINK_ClrBPEx(BPHandle = 0x00000002)  returns 0x00 (0000ms, 0716ms total)
T20C4 000:781 JLINK_ReadReg(R0)  returns 0x00000001 (0000ms, 0716ms total)
T20C4 000:781 JLINK_WriteReg(R0, 0x0001B000)  returns 0x00 (0000ms, 0716ms total)
T20C4 000:781 JLINK_WriteReg(R1, 0x00000400)  returns 0x00 (0000ms, 0716ms total)
T20C4 000:781 JLINK_WriteReg(R2, 0x000000FF)  returns 0x00 (0000ms, 0716ms total)
T20C4 000:781 JLINK_WriteReg(R3, 0x00000000)  returns 0x00 (0000ms, 0716ms total)
T20C4 000:781 JLINK_WriteReg(R4, 0x00000000)  returns 0x00 (0000ms, 0716ms total)
T20C4 000:781 JLINK_WriteReg(R5, 0x00000000)  returns 0x00 (0000ms, 0716ms total)
T20C4 000:781 JLINK_WriteReg(R6, 0x00000000)  returns 0x00 (0000ms, 0716ms total)
T20C4 000:781 JLINK_WriteReg(R7, 0x00000000)  returns 0x00 (0000ms, 0716ms total)
T20C4 000:781 JLINK_WriteReg(R8, 0x00000000)  returns 0x00 (0000ms, 0716ms total)
T20C4 000:781 JLINK_WriteReg(R9, 0x20000474)  returns 0x00 (0000ms, 0716ms total)
T20C4 000:781 JLINK_WriteReg(R10, 0x00000000)  returns 0x00 (0000ms, 0716ms total)
T20C4 000:781 JLINK_WriteReg(R11, 0x00000000)  returns 0x00 (0000ms, 0716ms total)
T20C4 000:781 JLINK_WriteReg(R12, 0x00000000)  returns 0x00 (0000ms, 0716ms total)
T20C4 000:781 JLINK_WriteReg(R13 (SP), 0x20002000)  returns 0x00 (0000ms, 0716ms total)
T20C4 000:781 JLINK_WriteReg(R14, 0x20000001)  returns 0x00 (0000ms, 0716ms total)
T20C4 000:781 JLINK_WriteReg(R15 (PC), 0x20000104)  returns 0x00 (0000ms, 0716ms total)
T20C4 000:781 JLINK_WriteReg(XPSR, 0x01000000)  returns 0x00 (0000ms, 0716ms total)
T20C4 000:781 JLINK_WriteReg(MSP, 0x20002000)  returns 0x00 (0000ms, 0716ms total)
T20C4 000:781 JLINK_WriteReg(PSP, 0x20002000)  returns 0x00 (0000ms, 0716ms total)
T20C4 000:781 JLINK_WriteReg(CFBP, 0x00000000)  returns 0x00 (0000ms, 0716ms total)
T20C4 000:781 JLINK_SetBPEx(Addr = 0x20000000, Type = 0xFFFFFFF2)  returns 0x00000003 (0000ms, 0716ms total)
T20C4 000:781 JLINK_Go() -- CPU_ReadMem(4 bytes @ 0xE0001000) -- CPU_WriteMem(4 bytes @ 0xE0001000) (0003ms, 0719ms total)
T20C4 000:784 JLINK_IsHalted()  returns FALSE (0001ms, 0720ms total)
T20C4 000:807 JLINK_IsHalted() -- CPU_ReadMem(2 bytes @ 0x20000000)  returns TRUE (0006ms, 0725ms total)
T20C4 000:813 JLINK_ReadReg(R15 (PC))  returns 0x20000000 (0000ms, 0719ms total)
T20C4 000:813 JLINK_ClrBPEx(BPHandle = 0x00000003)  returns 0x00 (0000ms, 0719ms total)
T20C4 000:813 JLINK_ReadReg(R0)  returns 0x00000000 (0000ms, 0719ms total)
T20C4 000:814 JLINK_WriteReg(R0, 0x0001B400)  returns 0x00 (0000ms, 0719ms total)
T20C4 000:814 JLINK_WriteReg(R1, 0x00000400)  returns 0x00 (0000ms, 0719ms total)
T20C4 000:814 JLINK_WriteReg(R2, 0x000000FF)  returns 0x00 (0000ms, 0719ms total)
T20C4 000:814 JLINK_WriteReg(R3, 0x00000000)  returns 0x00 (0000ms, 0719ms total)
T20C4 000:814 JLINK_WriteReg(R4, 0x00000000)  returns 0x00 (0000ms, 0719ms total)
T20C4 000:814 JLINK_WriteReg(R5, 0x00000000)  returns 0x00 (0000ms, 0719ms total)
T20C4 000:814 JLINK_WriteReg(R6, 0x00000000)  returns 0x00 (0000ms, 0719ms total)
T20C4 000:814 JLINK_WriteReg(R7, 0x00000000)  returns 0x00 (0000ms, 0719ms total)
T20C4 000:814 JLINK_WriteReg(R8, 0x00000000)  returns 0x00 (0000ms, 0719ms total)
T20C4 000:814 JLINK_WriteReg(R9, 0x20000474)  returns 0x00 (0000ms, 0719ms total)
T20C4 000:814 JLINK_WriteReg(R10, 0x00000000)  returns 0x00 (0000ms, 0719ms total)
T20C4 000:814 JLINK_WriteReg(R11, 0x00000000)  returns 0x00 (0000ms, 0719ms total)
T20C4 000:814 JLINK_WriteReg(R12, 0x00000000)  returns 0x00 (0000ms, 0719ms total)
T20C4 000:814 JLINK_WriteReg(R13 (SP), 0x20002000)  returns 0x00 (0000ms, 0719ms total)
T20C4 000:814 JLINK_WriteReg(R14, 0x20000001)  returns 0x00 (0000ms, 0719ms total)
T20C4 000:814 JLINK_WriteReg(R15 (PC), 0x20000188)  returns 0x00 (0000ms, 0719ms total)
T20C4 000:814 JLINK_WriteReg(XPSR, 0x01000000)  returns 0x00 (0000ms, 0719ms total)
T20C4 000:814 JLINK_WriteReg(MSP, 0x20002000)  returns 0x00 (0000ms, 0719ms total)
T20C4 000:814 JLINK_WriteReg(PSP, 0x20002000)  returns 0x00 (0000ms, 0719ms total)
T20C4 000:814 JLINK_WriteReg(CFBP, 0x00000000)  returns 0x00 (0000ms, 0719ms total)
T20C4 000:814 JLINK_SetBPEx(Addr = 0x20000000, Type = 0xFFFFFFF2)  returns 0x00000004 (0000ms, 0719ms total)
T20C4 000:814 JLINK_Go() -- CPU_ReadMem(4 bytes @ 0xE0001000) -- CPU_WriteMem(4 bytes @ 0xE0001000) (0005ms, 0724ms total)
T20C4 000:819 JLINK_IsHalted() -- CPU_ReadMem(2 bytes @ 0x20000000)  returns TRUE (0007ms, 0731ms total)
T20C4 000:826 JLINK_ReadReg(R15 (PC))  returns 0x20000000 (0000ms, 0724ms total)
T20C4 000:826 JLINK_ClrBPEx(BPHandle = 0x00000004)  returns 0x00 (0000ms, 0724ms total)
T20C4 000:826 JLINK_ReadReg(R0)  returns 0x00000001 (0000ms, 0724ms total)
T20C4 000:826 JLINK_WriteReg(R0, 0x0001B400)  returns 0x00 (0000ms, 0724ms total)
T20C4 000:826 JLINK_WriteReg(R1, 0x00000400)  returns 0x00 (0000ms, 0724ms total)
T20C4 000:826 JLINK_WriteReg(R2, 0x000000FF)  returns 0x00 (0000ms, 0724ms total)
T20C4 000:826 JLINK_WriteReg(R3, 0x00000000)  returns 0x00 (0000ms, 0724ms total)
T20C4 000:826 JLINK_WriteReg(R4, 0x00000000)  returns 0x00 (0000ms, 0724ms total)
T20C4 000:826 JLINK_WriteReg(R5, 0x00000000)  returns 0x00 (0000ms, 0724ms total)
T20C4 000:826 JLINK_WriteReg(R6, 0x00000000)  returns 0x00 (0000ms, 0724ms total)
T20C4 000:826 JLINK_WriteReg(R7, 0x00000000)  returns 0x00 (0000ms, 0724ms total)
T20C4 000:826 JLINK_WriteReg(R8, 0x00000000)  returns 0x00 (0000ms, 0724ms total)
T20C4 000:826 JLINK_WriteReg(R9, 0x20000474)  returns 0x00 (0000ms, 0724ms total)
T20C4 000:826 JLINK_WriteReg(R10, 0x00000000)  returns 0x00 (0000ms, 0724ms total)
T20C4 000:826 JLINK_WriteReg(R11, 0x00000000)  returns 0x00 (0000ms, 0724ms total)
T20C4 000:826 JLINK_WriteReg(R12, 0x00000000)  returns 0x00 (0000ms, 0724ms total)
T20C4 000:826 JLINK_WriteReg(R13 (SP), 0x20002000)  returns 0x00 (0000ms, 0724ms total)
T20C4 000:826 JLINK_WriteReg(R14, 0x20000001)  returns 0x00 (0000ms, 0724ms total)
T20C4 000:826 JLINK_WriteReg(R15 (PC), 0x20000104)  returns 0x00 (0000ms, 0724ms total)
T20C4 000:826 JLINK_WriteReg(XPSR, 0x01000000)  returns 0x00 (0000ms, 0724ms total)
T20C4 000:826 JLINK_WriteReg(MSP, 0x20002000)  returns 0x00 (0000ms, 0724ms total)
T20C4 000:826 JLINK_WriteReg(PSP, 0x20002000)  returns 0x00 (0000ms, 0724ms total)
T20C4 000:826 JLINK_WriteReg(CFBP, 0x00000000)  returns 0x00 (0000ms, 0724ms total)
T20C4 000:826 JLINK_SetBPEx(Addr = 0x20000000, Type = 0xFFFFFFF2)  returns 0x00000005 (0000ms, 0724ms total)
T20C4 000:826 JLINK_Go() -- CPU_ReadMem(4 bytes @ 0xE0001000) -- CPU_WriteMem(4 bytes @ 0xE0001000) (0004ms, 0728ms total)
T20C4 000:830 JLINK_IsHalted()  returns FALSE (0001ms, 0729ms total)
T20C4 000:832 JLINK_IsHalted()  returns FALSE (0001ms, 0729ms total)
T20C4 000:834 JLINK_IsHalted()  returns FALSE (0001ms, 0729ms total)
T20C4 000:836 JLINK_IsHalted()  returns FALSE (0001ms, 0729ms total)
T20C4 000:838 JLINK_IsHalted()  returns FALSE (0001ms, 0729ms total)
T20C4 000:840 JLINK_IsHalted()  returns FALSE (0001ms, 0730ms total)
T20C4 000:842 JLINK_IsHalted()  returns FALSE (0001ms, 0730ms total)
T20C4 000:844 JLINK_IsHalted()  returns FALSE (0001ms, 0730ms total)
T20C4 000:846 JLINK_IsHalted()  returns FALSE (0001ms, 0730ms total)
T20C4 000:848 JLINK_IsHalted()  returns FALSE (0001ms, 0730ms total)
T20C4 000:850 JLINK_IsHalted()  returns FALSE (0001ms, 0730ms total)
T20C4 000:852 JLINK_IsHalted() -- CPU_ReadMem(2 bytes @ 0x20000000)  returns TRUE (0006ms, 0735ms total)
T20C4 000:858 JLINK_ReadReg(R15 (PC))  returns 0x20000000 (0000ms, 0729ms total)
T20C4 000:858 JLINK_ClrBPEx(BPHandle = 0x00000005)  returns 0x00 (0000ms, 0729ms total)
T20C4 000:858 JLINK_ReadReg(R0)  returns 0x00000000 (0000ms, 0729ms total)
T20C4 000:858 JLINK_WriteReg(R0, 0x0001B800)  returns 0x00 (0000ms, 0729ms total)
T20C4 000:858 JLINK_WriteReg(R1, 0x00000400)  returns 0x00 (0000ms, 0729ms total)
T20C4 000:858 JLINK_WriteReg(R2, 0x000000FF)  returns 0x00 (0000ms, 0729ms total)
T20C4 000:858 JLINK_WriteReg(R3, 0x00000000)  returns 0x00 (0000ms, 0729ms total)
T20C4 000:858 JLINK_WriteReg(R4, 0x00000000)  returns 0x00 (0000ms, 0729ms total)
T20C4 000:858 JLINK_WriteReg(R5, 0x00000000)  returns 0x00 (0000ms, 0729ms total)
T20C4 000:858 JLINK_WriteReg(R6, 0x00000000)  returns 0x00 (0000ms, 0729ms total)
T20C4 000:858 JLINK_WriteReg(R7, 0x00000000)  returns 0x00 (0000ms, 0729ms total)
T20C4 000:858 JLINK_WriteReg(R8, 0x00000000)  returns 0x00 (0001ms, 0730ms total)
T20C4 000:859 JLINK_WriteReg(R9, 0x20000474)  returns 0x00 (0000ms, 0730ms total)
T20C4 000:859 JLINK_WriteReg(R10, 0x00000000)  returns 0x00 (0000ms, 0730ms total)
T20C4 000:859 JLINK_WriteReg(R11, 0x00000000)  returns 0x00 (0000ms, 0730ms total)
T20C4 000:859 JLINK_WriteReg(R12, 0x00000000)  returns 0x00 (0000ms, 0730ms total)
T20C4 000:859 JLINK_WriteReg(R13 (SP), 0x20002000)  returns 0x00 (0000ms, 0730ms total)
T20C4 000:859 JLINK_WriteReg(R14, 0x20000001)  returns 0x00 (0000ms, 0730ms total)
T20C4 000:859 JLINK_WriteReg(R15 (PC), 0x20000188)  returns 0x00 (0000ms, 0730ms total)
T20C4 000:859 JLINK_WriteReg(XPSR, 0x01000000)  returns 0x00 (0000ms, 0730ms total)
T20C4 000:859 JLINK_WriteReg(MSP, 0x20002000)  returns 0x00 (0000ms, 0730ms total)
T20C4 000:859 JLINK_WriteReg(PSP, 0x20002000)  returns 0x00 (0000ms, 0730ms total)
T20C4 000:859 JLINK_WriteReg(CFBP, 0x00000000)  returns 0x00 (0000ms, 0730ms total)
T20C4 000:859 JLINK_SetBPEx(Addr = 0x20000000, Type = 0xFFFFFFF2)  returns 0x00000006 (0000ms, 0730ms total)
T20C4 000:859 JLINK_Go() -- CPU_ReadMem(4 bytes @ 0xE0001000) -- CPU_WriteMem(4 bytes @ 0xE0001000) (0005ms, 0735ms total)
T20C4 000:864 JLINK_IsHalted() -- CPU_ReadMem(2 bytes @ 0x20000000)  returns TRUE (0006ms, 0741ms total)
T20C4 000:870 JLINK_ReadReg(R15 (PC))  returns 0x20000000 (0000ms, 0735ms total)
T20C4 000:870 JLINK_ClrBPEx(BPHandle = 0x00000006)  returns 0x00 (0000ms, 0735ms total)
T20C4 000:870 JLINK_ReadReg(R0)  returns 0x00000001 (0000ms, 0735ms total)
T20C4 000:870 JLINK_WriteReg(R0, 0x0001B800)  returns 0x00 (0000ms, 0735ms total)
T20C4 000:870 JLINK_WriteReg(R1, 0x00000400)  returns 0x00 (0000ms, 0735ms total)
T20C4 000:870 JLINK_WriteReg(R2, 0x000000FF)  returns 0x00 (0000ms, 0735ms total)
T20C4 000:870 JLINK_WriteReg(R3, 0x00000000)  returns 0x00 (0000ms, 0735ms total)
T20C4 000:870 JLINK_WriteReg(R4, 0x00000000)  returns 0x00 (0000ms, 0735ms total)
T20C4 000:870 JLINK_WriteReg(R5, 0x00000000)  returns 0x00 (0000ms, 0735ms total)
T20C4 000:870 JLINK_WriteReg(R6, 0x00000000)  returns 0x00 (0000ms, 0735ms total)
T20C4 000:870 JLINK_WriteReg(R7, 0x00000000)  returns 0x00 (0000ms, 0735ms total)
T20C4 000:870 JLINK_WriteReg(R8, 0x00000000)  returns 0x00 (0000ms, 0735ms total)
T20C4 000:870 JLINK_WriteReg(R9, 0x20000474)  returns 0x00 (0000ms, 0735ms total)
T20C4 000:870 JLINK_WriteReg(R10, 0x00000000)  returns 0x00 (0000ms, 0735ms total)
T20C4 000:870 JLINK_WriteReg(R11, 0x00000000)  returns 0x00 (0000ms, 0735ms total)
T20C4 000:870 JLINK_WriteReg(R12, 0x00000000)  returns 0x00 (0000ms, 0735ms total)
T20C4 000:870 JLINK_WriteReg(R13 (SP), 0x20002000)  returns 0x00 (0000ms, 0735ms total)
T20C4 000:870 JLINK_WriteReg(R14, 0x20000001)  returns 0x00 (0000ms, 0735ms total)
T20C4 000:870 JLINK_WriteReg(R15 (PC), 0x20000104)  returns 0x00 (0000ms, 0735ms total)
T20C4 000:870 JLINK_WriteReg(XPSR, 0x01000000)  returns 0x00 (0000ms, 0735ms total)
T20C4 000:870 JLINK_WriteReg(MSP, 0x20002000)  returns 0x00 (0000ms, 0735ms total)
T20C4 000:870 JLINK_WriteReg(PSP, 0x20002000)  returns 0x00 (0000ms, 0735ms total)
T20C4 000:870 JLINK_WriteReg(CFBP, 0x00000000)  returns 0x00 (0000ms, 0735ms total)
T20C4 000:870 JLINK_SetBPEx(Addr = 0x20000000, Type = 0xFFFFFFF2)  returns 0x00000007 (0000ms, 0735ms total)
T20C4 000:870 JLINK_Go() -- CPU_ReadMem(4 bytes @ 0xE0001000) -- CPU_WriteMem(4 bytes @ 0xE0001000) (0004ms, 0739ms total)
T20C4 000:874 JLINK_IsHalted()  returns FALSE (0001ms, 0740ms total)
T20C4 000:876 JLINK_IsHalted()  returns FALSE (0000ms, 0739ms total)
T20C4 000:877 JLINK_IsHalted()  returns FALSE (0000ms, 0739ms total)
T20C4 000:878 JLINK_IsHalted()  returns FALSE (0000ms, 0739ms total)
T20C4 000:879 JLINK_IsHalted()  returns FALSE (0000ms, 0739ms total)
T20C4 000:880 JLINK_IsHalted()  returns FALSE (0000ms, 0739ms total)
T20C4 000:881 JLINK_IsHalted()  returns FALSE (0000ms, 0739ms total)
T20C4 000:882 JLINK_IsHalted()  returns FALSE (0000ms, 0739ms total)
T20C4 000:883 JLINK_IsHalted()  returns FALSE (0000ms, 0739ms total)
T20C4 000:884 JLINK_IsHalted()  returns FALSE (0000ms, 0739ms total)
T20C4 000:885 JLINK_IsHalted()  returns FALSE (0000ms, 0739ms total)
T20C4 000:886 JLINK_IsHalted()  returns FALSE (0000ms, 0739ms total)
T20C4 000:887 JLINK_IsHalted()  returns FALSE (0000ms, 0739ms total)
T20C4 000:888 JLINK_IsHalted()  returns FALSE (0000ms, 0739ms total)
T20C4 000:889 JLINK_IsHalted()  returns FALSE (0000ms, 0739ms total)
T20C4 000:890 JLINK_IsHalted()  returns FALSE (0000ms, 0739ms total)
T20C4 000:891 JLINK_IsHalted()  returns FALSE (0000ms, 0739ms total)
T20C4 000:892 JLINK_IsHalted()  returns FALSE (0000ms, 0739ms total)
T20C4 000:893 JLINK_IsHalted()  returns FALSE (0000ms, 0739ms total)
T20C4 000:894 JLINK_IsHalted()  returns FALSE (0000ms, 0739ms total)
T20C4 000:895 JLINK_IsHalted() -- CPU_ReadMem(2 bytes @ 0x20000000)  returns TRUE (0005ms, 0744ms total)
T20C4 000:900 JLINK_ReadReg(R15 (PC))  returns 0x20000000 (0000ms, 0739ms total)
T20C4 000:900 JLINK_ClrBPEx(BPHandle = 0x00000007)  returns 0x00 (0000ms, 0739ms total)
T20C4 000:900 JLINK_ReadReg(R0)  returns 0x00000000 (0000ms, 0739ms total)
T20C4 000:901 JLINK_WriteReg(R0, 0x0001BC00)  returns 0x00 (0000ms, 0739ms total)
T20C4 000:901 JLINK_WriteReg(R1, 0x00000400)  returns 0x00 (0000ms, 0739ms total)
T20C4 000:901 JLINK_WriteReg(R2, 0x000000FF)  returns 0x00 (0000ms, 0739ms total)
T20C4 000:901 JLINK_WriteReg(R3, 0x00000000)  returns 0x00 (0000ms, 0739ms total)
T20C4 000:901 JLINK_WriteReg(R4, 0x00000000)  returns 0x00 (0000ms, 0739ms total)
T20C4 000:901 JLINK_WriteReg(R5, 0x00000000)  returns 0x00 (0000ms, 0739ms total)
T20C4 000:901 JLINK_WriteReg(R6, 0x00000000)  returns 0x00 (0000ms, 0739ms total)
T20C4 000:901 JLINK_WriteReg(R7, 0x00000000)  returns 0x00 (0000ms, 0739ms total)
T20C4 000:901 JLINK_WriteReg(R8, 0x00000000)  returns 0x00 (0000ms, 0739ms total)
T20C4 000:901 JLINK_WriteReg(R9, 0x20000474)  returns 0x00 (0000ms, 0739ms total)
T20C4 000:901 JLINK_WriteReg(R10, 0x00000000)  returns 0x00 (0000ms, 0739ms total)
T20C4 000:901 JLINK_WriteReg(R11, 0x00000000)  returns 0x00 (0000ms, 0739ms total)
T20C4 000:901 JLINK_WriteReg(R12, 0x00000000)  returns 0x00 (0000ms, 0739ms total)
T20C4 000:901 JLINK_WriteReg(R13 (SP), 0x20002000)  returns 0x00 (0000ms, 0739ms total)
T20C4 000:901 JLINK_WriteReg(R14, 0x20000001)  returns 0x00 (0000ms, 0739ms total)
T20C4 000:901 JLINK_WriteReg(R15 (PC), 0x20000188)  returns 0x00 (0000ms, 0739ms total)
T20C4 000:901 JLINK_WriteReg(XPSR, 0x01000000)  returns 0x00 (0000ms, 0739ms total)
T20C4 000:901 JLINK_WriteReg(MSP, 0x20002000)  returns 0x00 (0000ms, 0739ms total)
T20C4 000:901 JLINK_WriteReg(PSP, 0x20002000)  returns 0x00 (0000ms, 0739ms total)
T20C4 000:901 JLINK_WriteReg(CFBP, 0x00000000)  returns 0x00 (0000ms, 0739ms total)
T20C4 000:901 JLINK_SetBPEx(Addr = 0x20000000, Type = 0xFFFFFFF2)  returns 0x00000008 (0000ms, 0739ms total)
T20C4 000:901 JLINK_Go() -- CPU_ReadMem(4 bytes @ 0xE0001000) -- CPU_WriteMem(4 bytes @ 0xE0001000) (0005ms, 0744ms total)
T20C4 000:906 JLINK_IsHalted() -- CPU_ReadMem(2 bytes @ 0x20000000)  returns TRUE (0007ms, 0751ms total)
T20C4 000:913 JLINK_ReadReg(R15 (PC))  returns 0x20000000 (0000ms, 0744ms total)
T20C4 000:913 JLINK_ClrBPEx(BPHandle = 0x00000008)  returns 0x00 (0000ms, 0744ms total)
T20C4 000:913 JLINK_ReadReg(R0)  returns 0x00000001 (0000ms, 0744ms total)
T20C4 000:913 JLINK_WriteReg(R0, 0x0001BC00)  returns 0x00 (0000ms, 0744ms total)
T20C4 000:913 JLINK_WriteReg(R1, 0x00000400)  returns 0x00 (0000ms, 0744ms total)
T20C4 000:913 JLINK_WriteReg(R2, 0x000000FF)  returns 0x00 (0000ms, 0744ms total)
T20C4 000:913 JLINK_WriteReg(R3, 0x00000000)  returns 0x00 (0000ms, 0744ms total)
T20C4 000:913 JLINK_WriteReg(R4, 0x00000000)  returns 0x00 (0000ms, 0744ms total)
T20C4 000:913 JLINK_WriteReg(R5, 0x00000000)  returns 0x00 (0000ms, 0744ms total)
T20C4 000:913 JLINK_WriteReg(R6, 0x00000000)  returns 0x00 (0000ms, 0744ms total)
T20C4 000:913 JLINK_WriteReg(R7, 0x00000000)  returns 0x00 (0000ms, 0744ms total)
T20C4 000:913 JLINK_WriteReg(R8, 0x00000000)  returns 0x00 (0000ms, 0744ms total)
T20C4 000:913 JLINK_WriteReg(R9, 0x20000474)  returns 0x00 (0000ms, 0744ms total)
T20C4 000:913 JLINK_WriteReg(R10, 0x00000000)  returns 0x00 (0000ms, 0744ms total)
T20C4 000:913 JLINK_WriteReg(R11, 0x00000000)  returns 0x00 (0000ms, 0744ms total)
T20C4 000:913 JLINK_WriteReg(R12, 0x00000000)  returns 0x00 (0000ms, 0744ms total)
T20C4 000:913 JLINK_WriteReg(R13 (SP), 0x20002000)  returns 0x00 (0000ms, 0744ms total)
T20C4 000:913 JLINK_WriteReg(R14, 0x20000001)  returns 0x00 (0000ms, 0744ms total)
T20C4 000:913 JLINK_WriteReg(R15 (PC), 0x20000104)  returns 0x00 (0000ms, 0744ms total)
T20C4 000:913 JLINK_WriteReg(XPSR, 0x01000000)  returns 0x00 (0000ms, 0744ms total)
T20C4 000:913 JLINK_WriteReg(MSP, 0x20002000)  returns 0x00 (0000ms, 0744ms total)
T20C4 000:913 JLINK_WriteReg(PSP, 0x20002000)  returns 0x00 (0000ms, 0744ms total)
T20C4 000:913 JLINK_WriteReg(CFBP, 0x00000000)  returns 0x00 (0000ms, 0744ms total)
T20C4 000:913 JLINK_SetBPEx(Addr = 0x20000000, Type = 0xFFFFFFF2)  returns 0x00000009 (0000ms, 0744ms total)
T20C4 000:913 JLINK_Go() -- CPU_ReadMem(4 bytes @ 0xE0001000) -- CPU_WriteMem(4 bytes @ 0xE0001000) (0004ms, 0748ms total)
T20C4 000:917 JLINK_IsHalted()  returns FALSE (0001ms, 0749ms total)
T20C4 000:923 JLINK_IsHalted()  returns FALSE (0001ms, 0749ms total)
T20C4 000:925 JLINK_IsHalted()  returns FALSE (0001ms, 0749ms total)
T20C4 000:927 JLINK_IsHalted()  returns FALSE (0001ms, 0749ms total)
T20C4 000:929 JLINK_IsHalted()  returns FALSE (0001ms, 0749ms total)
T20C4 000:931 JLINK_IsHalted()  returns FALSE (0001ms, 0749ms total)
T20C4 000:933 JLINK_IsHalted()  returns FALSE (0001ms, 0749ms total)
T20C4 000:935 JLINK_IsHalted()  returns FALSE (0001ms, 0749ms total)
T20C4 000:937 JLINK_IsHalted()  returns FALSE (0001ms, 0749ms total)
T20C4 000:939 JLINK_IsHalted() -- CPU_ReadMem(2 bytes @ 0x20000000)  returns TRUE (0006ms, 0754ms total)
T20C4 000:945 JLINK_ReadReg(R15 (PC))  returns 0x20000000 (0000ms, 0748ms total)
T20C4 000:945 JLINK_ClrBPEx(BPHandle = 0x00000009)  returns 0x00 (0000ms, 0748ms total)
T20C4 000:945 JLINK_ReadReg(R0)  returns 0x00000000 (0000ms, 0748ms total)
T20C4 000:946 JLINK_WriteReg(R0, 0x0001C000)  returns 0x00 (0000ms, 0748ms total)
T20C4 000:946 JLINK_WriteReg(R1, 0x00000400)  returns 0x00 (0000ms, 0748ms total)
T20C4 000:946 JLINK_WriteReg(R2, 0x000000FF)  returns 0x00 (0000ms, 0748ms total)
T20C4 000:946 JLINK_WriteReg(R3, 0x00000000)  returns 0x00 (0000ms, 0748ms total)
T20C4 000:946 JLINK_WriteReg(R4, 0x00000000)  returns 0x00 (0000ms, 0748ms total)
T20C4 000:946 JLINK_WriteReg(R5, 0x00000000)  returns 0x00 (0000ms, 0748ms total)
T20C4 000:946 JLINK_WriteReg(R6, 0x00000000)  returns 0x00 (0000ms, 0748ms total)
T20C4 000:946 JLINK_WriteReg(R7, 0x00000000)  returns 0x00 (0000ms, 0748ms total)
T20C4 000:946 JLINK_WriteReg(R8, 0x00000000)  returns 0x00 (0000ms, 0748ms total)
T20C4 000:946 JLINK_WriteReg(R9, 0x20000474)  returns 0x00 (0000ms, 0748ms total)
T20C4 000:946 JLINK_WriteReg(R10, 0x00000000)  returns 0x00 (0001ms, 0749ms total)
T20C4 000:947 JLINK_WriteReg(R11, 0x00000000)  returns 0x00 (0000ms, 0749ms total)
T20C4 000:947 JLINK_WriteReg(R12, 0x00000000)  returns 0x00 (0000ms, 0749ms total)
T20C4 000:947 JLINK_WriteReg(R13 (SP), 0x20002000)  returns 0x00 (0000ms, 0749ms total)
T20C4 000:948 JLINK_WriteReg(R14, 0x20000001)  returns 0x00 (0000ms, 0750ms total)
T20C4 000:948 JLINK_WriteReg(R15 (PC), 0x20000188)  returns 0x00 (0000ms, 0750ms total)
T20C4 000:948 JLINK_WriteReg(XPSR, 0x01000000)  returns 0x00 (0000ms, 0750ms total)
T20C4 000:948 JLINK_WriteReg(MSP, 0x20002000)  returns 0x00 (0000ms, 0750ms total)
T20C4 000:948 JLINK_WriteReg(PSP, 0x20002000)  returns 0x00 (0000ms, 0750ms total)
T20C4 000:948 JLINK_WriteReg(CFBP, 0x00000000)  returns 0x00 (0000ms, 0750ms total)
T20C4 000:948 JLINK_SetBPEx(Addr = 0x20000000, Type = 0xFFFFFFF2)  returns 0x0000000A (0000ms, 0750ms total)
T20C4 000:948 JLINK_Go() -- CPU_ReadMem(4 bytes @ 0xE0001000) -- CPU_WriteMem(4 bytes @ 0xE0001000) (0005ms, 0755ms total)
T20C4 000:953 JLINK_IsHalted() -- CPU_ReadMem(2 bytes @ 0x20000000)  returns TRUE (0006ms, 0761ms total)
T20C4 000:959 JLINK_ReadReg(R15 (PC))  returns 0x20000000 (0000ms, 0755ms total)
T20C4 000:959 JLINK_ClrBPEx(BPHandle = 0x0000000A)  returns 0x00 (0000ms, 0755ms total)
T20C4 000:959 JLINK_ReadReg(R0)  returns 0x00000001 (0000ms, 0755ms total)
T20C4 000:959 JLINK_WriteReg(R0, 0x0001C000)  returns 0x00 (0000ms, 0755ms total)
T20C4 000:959 JLINK_WriteReg(R1, 0x00000400)  returns 0x00 (0000ms, 0755ms total)
T20C4 000:959 JLINK_WriteReg(R2, 0x000000FF)  returns 0x00 (0000ms, 0755ms total)
T20C4 000:959 JLINK_WriteReg(R3, 0x00000000)  returns 0x00 (0000ms, 0755ms total)
T20C4 000:959 JLINK_WriteReg(R4, 0x00000000)  returns 0x00 (0000ms, 0755ms total)
T20C4 000:959 JLINK_WriteReg(R5, 0x00000000)  returns 0x00 (0000ms, 0755ms total)
T20C4 000:959 JLINK_WriteReg(R6, 0x00000000)  returns 0x00 (0000ms, 0755ms total)
T20C4 000:959 JLINK_WriteReg(R7, 0x00000000)  returns 0x00 (0000ms, 0755ms total)
T20C4 000:959 JLINK_WriteReg(R8, 0x00000000)  returns 0x00 (0000ms, 0755ms total)
T20C4 000:959 JLINK_WriteReg(R9, 0x20000474)  returns 0x00 (0000ms, 0755ms total)
T20C4 000:959 JLINK_WriteReg(R10, 0x00000000)  returns 0x00 (0000ms, 0755ms total)
T20C4 000:959 JLINK_WriteReg(R11, 0x00000000)  returns 0x00 (0000ms, 0755ms total)
T20C4 000:959 JLINK_WriteReg(R12, 0x00000000)  returns 0x00 (0000ms, 0755ms total)
T20C4 000:959 JLINK_WriteReg(R13 (SP), 0x20002000)  returns 0x00 (0000ms, 0755ms total)
T20C4 000:959 JLINK_WriteReg(R14, 0x20000001)  returns 0x00 (0000ms, 0755ms total)
T20C4 000:959 JLINK_WriteReg(R15 (PC), 0x20000104)  returns 0x00 (0000ms, 0755ms total)
T20C4 000:959 JLINK_WriteReg(XPSR, 0x01000000)  returns 0x00 (0000ms, 0755ms total)
T20C4 000:959 JLINK_WriteReg(MSP, 0x20002000)  returns 0x00 (0000ms, 0755ms total)
T20C4 000:959 JLINK_WriteReg(PSP, 0x20002000)  returns 0x00 (0000ms, 0755ms total)
T20C4 000:959 JLINK_WriteReg(CFBP, 0x00000000)  returns 0x00 (0000ms, 0755ms total)
T20C4 000:959 JLINK_SetBPEx(Addr = 0x20000000, Type = 0xFFFFFFF2)  returns 0x0000000B (0000ms, 0755ms total)
T20C4 000:959 JLINK_Go() -- CPU_ReadMem(4 bytes @ 0xE0001000) -- CPU_WriteMem(4 bytes @ 0xE0001000) (0004ms, 0759ms total)
T20C4 000:963 JLINK_IsHalted()  returns FALSE (0001ms, 0760ms total)
T20C4 000:967 JLINK_IsHalted()  returns FALSE (0001ms, 0760ms total)
T20C4 000:969 JLINK_IsHalted()  returns FALSE (0001ms, 0760ms total)
T20C4 000:971 JLINK_IsHalted()  returns FALSE (0001ms, 0760ms total)
T20C4 000:973 JLINK_IsHalted()  returns FALSE (0001ms, 0760ms total)
T20C4 000:975 JLINK_IsHalted()  returns FALSE (0001ms, 0760ms total)
T20C4 000:977 JLINK_IsHalted()  returns FALSE (0001ms, 0760ms total)
T20C4 000:979 JLINK_IsHalted()  returns FALSE (0001ms, 0760ms total)
T20C4 000:981 JLINK_IsHalted()  returns FALSE (0001ms, 0760ms total)
T20C4 000:983 JLINK_IsHalted()  returns FALSE (0001ms, 0760ms total)
T20C4 000:985 JLINK_IsHalted() -- CPU_ReadMem(2 bytes @ 0x20000000)  returns TRUE (0006ms, 0765ms total)
T20C4 000:991 JLINK_ReadReg(R15 (PC))  returns 0x20000000 (0000ms, 0759ms total)
T20C4 000:991 JLINK_ClrBPEx(BPHandle = 0x0000000B)  returns 0x00 (0000ms, 0759ms total)
T20C4 000:991 JLINK_ReadReg(R0)  returns 0x00000000 (0000ms, 0759ms total)
T20C4 000:991 JLINK_WriteReg(R0, 0x0001C400)  returns 0x00 (0000ms, 0759ms total)
T20C4 000:991 JLINK_WriteReg(R1, 0x00000400)  returns 0x00 (0000ms, 0759ms total)
T20C4 000:991 JLINK_WriteReg(R2, 0x000000FF)  returns 0x00 (0000ms, 0759ms total)
T20C4 000:991 JLINK_WriteReg(R3, 0x00000000)  returns 0x00 (0000ms, 0759ms total)
T20C4 000:991 JLINK_WriteReg(R4, 0x00000000)  returns 0x00 (0000ms, 0759ms total)
T20C4 000:991 JLINK_WriteReg(R5, 0x00000000)  returns 0x00 (0001ms, 0760ms total)
T20C4 000:992 JLINK_WriteReg(R6, 0x00000000)  returns 0x00 (0000ms, 0760ms total)
T20C4 000:992 JLINK_WriteReg(R7, 0x00000000)  returns 0x00 (0000ms, 0760ms total)
T20C4 000:992 JLINK_WriteReg(R8, 0x00000000)  returns 0x00 (0000ms, 0760ms total)
T20C4 000:992 JLINK_WriteReg(R9, 0x20000474)  returns 0x00 (0000ms, 0760ms total)
T20C4 000:992 JLINK_WriteReg(R10, 0x00000000)  returns 0x00 (0000ms, 0760ms total)
T20C4 000:992 JLINK_WriteReg(R11, 0x00000000)  returns 0x00 (0000ms, 0760ms total)
T20C4 000:992 JLINK_WriteReg(R12, 0x00000000)  returns 0x00 (0000ms, 0760ms total)
T20C4 000:992 JLINK_WriteReg(R13 (SP), 0x20002000)  returns 0x00 (0000ms, 0760ms total)
T20C4 000:992 JLINK_WriteReg(R14, 0x20000001)  returns 0x00 (0000ms, 0760ms total)
T20C4 000:992 JLINK_WriteReg(R15 (PC), 0x20000188)  returns 0x00 (0000ms, 0760ms total)
T20C4 000:992 JLINK_WriteReg(XPSR, 0x01000000)  returns 0x00 (0000ms, 0760ms total)
T20C4 000:992 JLINK_WriteReg(MSP, 0x20002000)  returns 0x00 (0000ms, 0760ms total)
T20C4 000:992 JLINK_WriteReg(PSP, 0x20002000)  returns 0x00 (0000ms, 0760ms total)
T20C4 000:992 JLINK_WriteReg(CFBP, 0x00000000)  returns 0x00 (0000ms, 0760ms total)
T20C4 000:992 JLINK_SetBPEx(Addr = 0x20000000, Type = 0xFFFFFFF2)  returns 0x0000000C (0000ms, 0760ms total)
T20C4 000:992 JLINK_Go() -- CPU_ReadMem(4 bytes @ 0xE0001000) -- CPU_WriteMem(4 bytes @ 0xE0001000) (0005ms, 0765ms total)
T20C4 000:997 JLINK_IsHalted() -- CPU_ReadMem(2 bytes @ 0x20000000)  returns TRUE (0006ms, 0771ms total)
T20C4 001:003 JLINK_ReadReg(R15 (PC))  returns 0x20000000 (0000ms, 0765ms total)
T20C4 001:003 JLINK_ClrBPEx(BPHandle = 0x0000000C)  returns 0x00 (0000ms, 0765ms total)
T20C4 001:003 JLINK_ReadReg(R0)  returns 0x00000001 (0000ms, 0765ms total)
T20C4 001:003 JLINK_WriteReg(R0, 0x0001C400)  returns 0x00 (0000ms, 0765ms total)
T20C4 001:003 JLINK_WriteReg(R1, 0x00000400)  returns 0x00 (0000ms, 0765ms total)
T20C4 001:003 JLINK_WriteReg(R2, 0x000000FF)  returns 0x00 (0000ms, 0765ms total)
T20C4 001:003 JLINK_WriteReg(R3, 0x00000000)  returns 0x00 (0000ms, 0765ms total)
T20C4 001:003 JLINK_WriteReg(R4, 0x00000000)  returns 0x00 (0000ms, 0765ms total)
T20C4 001:003 JLINK_WriteReg(R5, 0x00000000)  returns 0x00 (0000ms, 0765ms total)
T20C4 001:003 JLINK_WriteReg(R6, 0x00000000)  returns 0x00 (0000ms, 0765ms total)
T20C4 001:003 JLINK_WriteReg(R7, 0x00000000)  returns 0x00 (0000ms, 0765ms total)
T20C4 001:003 JLINK_WriteReg(R8, 0x00000000)  returns 0x00 (0000ms, 0765ms total)
T20C4 001:003 JLINK_WriteReg(R9, 0x20000474)  returns 0x00 (0000ms, 0765ms total)
T20C4 001:003 JLINK_WriteReg(R10, 0x00000000)  returns 0x00 (0000ms, 0765ms total)
T20C4 001:003 JLINK_WriteReg(R11, 0x00000000)  returns 0x00 (0000ms, 0765ms total)
T20C4 001:003 JLINK_WriteReg(R12, 0x00000000)  returns 0x00 (0000ms, 0765ms total)
T20C4 001:003 JLINK_WriteReg(R13 (SP), 0x20002000)  returns 0x00 (0000ms, 0765ms total)
T20C4 001:003 JLINK_WriteReg(R14, 0x20000001)  returns 0x00 (0000ms, 0765ms total)
T20C4 001:003 JLINK_WriteReg(R15 (PC), 0x20000104)  returns 0x00 (0000ms, 0765ms total)
T20C4 001:003 JLINK_WriteReg(XPSR, 0x01000000)  returns 0x00 (0000ms, 0765ms total)
T20C4 001:003 JLINK_WriteReg(MSP, 0x20002000)  returns 0x00 (0000ms, 0765ms total)
T20C4 001:003 JLINK_WriteReg(PSP, 0x20002000)  returns 0x00 (0000ms, 0765ms total)
T20C4 001:003 JLINK_WriteReg(CFBP, 0x00000000)  returns 0x00 (0000ms, 0765ms total)
T20C4 001:003 JLINK_SetBPEx(Addr = 0x20000000, Type = 0xFFFFFFF2)  returns 0x0000000D (0000ms, 0765ms total)
T20C4 001:003 JLINK_Go() -- CPU_ReadMem(4 bytes @ 0xE0001000) -- CPU_WriteMem(4 bytes @ 0xE0001000) (0004ms, 0769ms total)
T20C4 001:007 JLINK_IsHalted()  returns FALSE (0001ms, 0770ms total)
T20C4 001:013 JLINK_IsHalted()  returns FALSE (0001ms, 0770ms total)
T20C4 001:015 JLINK_IsHalted()  returns FALSE (0001ms, 0770ms total)
T20C4 001:017 JLINK_IsHalted()  returns FALSE (0001ms, 0770ms total)
T20C4 001:019 JLINK_IsHalted()  returns FALSE (0001ms, 0770ms total)
T20C4 001:021 JLINK_IsHalted()  returns FALSE (0001ms, 0770ms total)
T20C4 001:023 JLINK_IsHalted()  returns FALSE (0001ms, 0770ms total)
T20C4 001:025 JLINK_IsHalted()  returns FALSE (0001ms, 0770ms total)
T20C4 001:027 JLINK_IsHalted()  returns FALSE (0001ms, 0770ms total)
T20C4 001:029 JLINK_IsHalted() -- CPU_ReadMem(2 bytes @ 0x20000000)  returns TRUE (0006ms, 0775ms total)
T20C4 001:035 JLINK_ReadReg(R15 (PC))  returns 0x20000000 (0000ms, 0769ms total)
T20C4 001:035 JLINK_ClrBPEx(BPHandle = 0x0000000D)  returns 0x00 (0000ms, 0769ms total)
T20C4 001:035 JLINK_ReadReg(R0)  returns 0x00000000 (0000ms, 0769ms total)
T20C4 001:036 JLINK_WriteReg(R0, 0x0001C800)  returns 0x00 (0000ms, 0769ms total)
T20C4 001:036 JLINK_WriteReg(R1, 0x00000400)  returns 0x00 (0000ms, 0769ms total)
T20C4 001:036 JLINK_WriteReg(R2, 0x000000FF)  returns 0x00 (0000ms, 0769ms total)
T20C4 001:036 JLINK_WriteReg(R3, 0x00000000)  returns 0x00 (0000ms, 0769ms total)
T20C4 001:036 JLINK_WriteReg(R4, 0x00000000)  returns 0x00 (0000ms, 0769ms total)
T20C4 001:036 JLINK_WriteReg(R5, 0x00000000)  returns 0x00 (0000ms, 0769ms total)
T20C4 001:036 JLINK_WriteReg(R6, 0x00000000)  returns 0x00 (0000ms, 0769ms total)
T20C4 001:036 JLINK_WriteReg(R7, 0x00000000)  returns 0x00 (0000ms, 0769ms total)
T20C4 001:036 JLINK_WriteReg(R8, 0x00000000)  returns 0x00 (0000ms, 0769ms total)
T20C4 001:036 JLINK_WriteReg(R9, 0x20000474)  returns 0x00 (0000ms, 0769ms total)
T20C4 001:036 JLINK_WriteReg(R10, 0x00000000)  returns 0x00 (0000ms, 0769ms total)
T20C4 001:036 JLINK_WriteReg(R11, 0x00000000)  returns 0x00 (0000ms, 0769ms total)
T20C4 001:036 JLINK_WriteReg(R12, 0x00000000)  returns 0x00 (0000ms, 0769ms total)
T20C4 001:036 JLINK_WriteReg(R13 (SP), 0x20002000)  returns 0x00 (0000ms, 0769ms total)
T20C4 001:036 JLINK_WriteReg(R14, 0x20000001)  returns 0x00 (0000ms, 0769ms total)
T20C4 001:036 JLINK_WriteReg(R15 (PC), 0x20000188)  returns 0x00 (0000ms, 0769ms total)
T20C4 001:036 JLINK_WriteReg(XPSR, 0x01000000)  returns 0x00 (0000ms, 0769ms total)
T20C4 001:036 JLINK_WriteReg(MSP, 0x20002000)  returns 0x00 (0000ms, 0769ms total)
T20C4 001:036 JLINK_WriteReg(PSP, 0x20002000)  returns 0x00 (0000ms, 0769ms total)
T20C4 001:036 JLINK_WriteReg(CFBP, 0x00000000)  returns 0x00 (0000ms, 0769ms total)
T20C4 001:036 JLINK_SetBPEx(Addr = 0x20000000, Type = 0xFFFFFFF2)  returns 0x0000000E (0000ms, 0769ms total)
T20C4 001:036 JLINK_Go() -- CPU_ReadMem(4 bytes @ 0xE0001000) -- CPU_WriteMem(4 bytes @ 0xE0001000) (0005ms, 0774ms total)
T20C4 001:041 JLINK_IsHalted() -- CPU_ReadMem(2 bytes @ 0x20000000)  returns TRUE (0006ms, 0780ms total)
T20C4 001:047 JLINK_ReadReg(R15 (PC))  returns 0x20000000 (0000ms, 0774ms total)
T20C4 001:047 JLINK_ClrBPEx(BPHandle = 0x0000000E)  returns 0x00 (0000ms, 0774ms total)
T20C4 001:047 JLINK_ReadReg(R0)  returns 0x00000001 (0000ms, 0774ms total)
T20C4 001:047 JLINK_WriteReg(R0, 0x0001C800)  returns 0x00 (0000ms, 0774ms total)
T20C4 001:047 JLINK_WriteReg(R1, 0x00000400)  returns 0x00 (0000ms, 0774ms total)
T20C4 001:047 JLINK_WriteReg(R2, 0x000000FF)  returns 0x00 (0000ms, 0774ms total)
T20C4 001:047 JLINK_WriteReg(R3, 0x00000000)  returns 0x00 (0000ms, 0774ms total)
T20C4 001:047 JLINK_WriteReg(R4, 0x00000000)  returns 0x00 (0000ms, 0774ms total)
T20C4 001:047 JLINK_WriteReg(R5, 0x00000000)  returns 0x00 (0000ms, 0774ms total)
T20C4 001:047 JLINK_WriteReg(R6, 0x00000000)  returns 0x00 (0000ms, 0774ms total)
T20C4 001:047 JLINK_WriteReg(R7, 0x00000000)  returns 0x00 (0000ms, 0774ms total)
T20C4 001:047 JLINK_WriteReg(R8, 0x00000000)  returns 0x00 (0000ms, 0774ms total)
T20C4 001:047 JLINK_WriteReg(R9, 0x20000474)  returns 0x00 (0001ms, 0775ms total)
T20C4 001:048 JLINK_WriteReg(R10, 0x00000000)  returns 0x00 (0000ms, 0775ms total)
T20C4 001:048 JLINK_WriteReg(R11, 0x00000000)  returns 0x00 (0000ms, 0775ms total)
T20C4 001:048 JLINK_WriteReg(R12, 0x00000000)  returns 0x00 (0000ms, 0775ms total)
T20C4 001:048 JLINK_WriteReg(R13 (SP), 0x20002000)  returns 0x00 (0000ms, 0775ms total)
T20C4 001:048 JLINK_WriteReg(R14, 0x20000001)  returns 0x00 (0000ms, 0775ms total)
T20C4 001:048 JLINK_WriteReg(R15 (PC), 0x20000104)  returns 0x00 (0000ms, 0775ms total)
T20C4 001:048 JLINK_WriteReg(XPSR, 0x01000000)  returns 0x00 (0000ms, 0775ms total)
T20C4 001:048 JLINK_WriteReg(MSP, 0x20002000)  returns 0x00 (0000ms, 0775ms total)
T20C4 001:048 JLINK_WriteReg(PSP, 0x20002000)  returns 0x00 (0000ms, 0775ms total)
T20C4 001:048 JLINK_WriteReg(CFBP, 0x00000000)  returns 0x00 (0000ms, 0775ms total)
T20C4 001:048 JLINK_SetBPEx(Addr = 0x20000000, Type = 0xFFFFFFF2)  returns 0x0000000F (0000ms, 0775ms total)
T20C4 001:048 JLINK_Go() -- CPU_ReadMem(4 bytes @ 0xE0001000) -- CPU_WriteMem(4 bytes @ 0xE0001000) (0003ms, 0778ms total)
T20C4 001:051 JLINK_IsHalted()  returns FALSE (0001ms, 0779ms total)
T20C4 001:053 JLINK_IsHalted()  returns FALSE (0000ms, 0778ms total)
T20C4 001:054 JLINK_IsHalted()  returns FALSE (0000ms, 0778ms total)
T20C4 001:055 JLINK_IsHalted()  returns FALSE (0000ms, 0778ms total)
T20C4 001:056 JLINK_IsHalted()  returns FALSE (0000ms, 0778ms total)
T20C4 001:057 JLINK_IsHalted()  returns FALSE (0000ms, 0778ms total)
T20C4 001:058 JLINK_IsHalted()  returns FALSE (0000ms, 0778ms total)
T20C4 001:059 JLINK_IsHalted()  returns FALSE (0000ms, 0778ms total)
T20C4 001:060 JLINK_IsHalted()  returns FALSE (0000ms, 0778ms total)
T20C4 001:061 JLINK_IsHalted()  returns FALSE (0000ms, 0778ms total)
T20C4 001:062 JLINK_IsHalted()  returns FALSE (0000ms, 0778ms total)
T20C4 001:063 JLINK_IsHalted()  returns FALSE (0000ms, 0778ms total)
T20C4 001:064 JLINK_IsHalted()  returns FALSE (0000ms, 0778ms total)
T20C4 001:065 JLINK_IsHalted()  returns FALSE (0000ms, 0778ms total)
T20C4 001:066 JLINK_IsHalted()  returns FALSE (0000ms, 0778ms total)
T20C4 001:067 JLINK_IsHalted()  returns FALSE (0000ms, 0778ms total)
T20C4 001:068 JLINK_IsHalted()  returns FALSE (0000ms, 0778ms total)
T20C4 001:069 JLINK_IsHalted()  returns FALSE (0000ms, 0778ms total)
T20C4 001:070 JLINK_IsHalted()  returns FALSE (0000ms, 0778ms total)
T20C4 001:071 JLINK_IsHalted()  returns FALSE (0000ms, 0778ms total)
T20C4 001:072 JLINK_IsHalted()  returns FALSE (0000ms, 0778ms total)
T20C4 001:073 JLINK_IsHalted() -- CPU_ReadMem(2 bytes @ 0x20000000)  returns TRUE (0006ms, 0784ms total)
T20C4 001:079 JLINK_ReadReg(R15 (PC))  returns 0x20000000 (0000ms, 0778ms total)
T20C4 001:079 JLINK_ClrBPEx(BPHandle = 0x0000000F)  returns 0x00 (0000ms, 0778ms total)
T20C4 001:079 JLINK_ReadReg(R0)  returns 0x00000000 (0000ms, 0778ms total)
T20C4 001:079 JLINK_WriteReg(R0, 0x0001CC00)  returns 0x00 (0000ms, 0778ms total)
T20C4 001:079 JLINK_WriteReg(R1, 0x00000400)  returns 0x00 (0000ms, 0778ms total)
T20C4 001:079 JLINK_WriteReg(R2, 0x000000FF)  returns 0x00 (0000ms, 0778ms total)
T20C4 001:079 JLINK_WriteReg(R3, 0x00000000)  returns 0x00 (0000ms, 0778ms total)
T20C4 001:079 JLINK_WriteReg(R4, 0x00000000)  returns 0x00 (0000ms, 0778ms total)
T20C4 001:079 JLINK_WriteReg(R5, 0x00000000)  returns 0x00 (0000ms, 0778ms total)
T20C4 001:079 JLINK_WriteReg(R6, 0x00000000)  returns 0x00 (0000ms, 0778ms total)
T20C4 001:079 JLINK_WriteReg(R7, 0x00000000)  returns 0x00 (0000ms, 0778ms total)
T20C4 001:079 JLINK_WriteReg(R8, 0x00000000)  returns 0x00 (0000ms, 0778ms total)
T20C4 001:079 JLINK_WriteReg(R9, 0x20000474)  returns 0x00 (0000ms, 0778ms total)
T20C4 001:079 JLINK_WriteReg(R10, 0x00000000)  returns 0x00 (0000ms, 0778ms total)
T20C4 001:079 JLINK_WriteReg(R11, 0x00000000)  returns 0x00 (0000ms, 0778ms total)
T20C4 001:079 JLINK_WriteReg(R12, 0x00000000)  returns 0x00 (0000ms, 0778ms total)
T20C4 001:079 JLINK_WriteReg(R13 (SP), 0x20002000)  returns 0x00 (0000ms, 0778ms total)
T20C4 001:079 JLINK_WriteReg(R14, 0x20000001)  returns 0x00 (0000ms, 0778ms total)
T20C4 001:079 JLINK_WriteReg(R15 (PC), 0x20000188)  returns 0x00 (0000ms, 0778ms total)
T20C4 001:079 JLINK_WriteReg(XPSR, 0x01000000)  returns 0x00 (0000ms, 0778ms total)
T20C4 001:079 JLINK_WriteReg(MSP, 0x20002000)  returns 0x00 (0000ms, 0778ms total)
T20C4 001:079 JLINK_WriteReg(PSP, 0x20002000)  returns 0x00 (0000ms, 0778ms total)
